can0  000   [2]  82 01
can0  701   [1]  00
can0  601   [8]  2B 17 10 00 00 00 00 00
can0  581   [8]  60 17 10 00 00 00 00 00
can0  601   [8]  40 00 18 01 00 00 00 00
can0  581   [8]  43 00 18 01 81 01 00 40
can0  601   [8]  23 00 18 01 81 01 00 C0
can0  581   [8]  60 00 18 01 00 00 00 00
can0  601   [8]  2F 00 1A 00 00 00 00 00
can0  581   [8]  60 00 1A 00 00 00 00 00
can0  601   [8]  23 00 1A 01 10 00 41 60
can0  581   [8]  60 00 1A 01 00 00 00 00
can0  601   [8]  40 41 60 00 00 00 00 00
can0  581   [8]  4B 41 60 00 18 06 00 00
can0  601   [8]  23 00 1A 02 08 00 61 60
can0  581   [8]  60 00 1A 02 00 00 00 00
can0  601   [8]  40 61 60 00 00 00 00 00
can0  581   [8]  4F 61 60 00 00 00 00 00
can0  601   [8]  2F 00 18 02 01 00 00 00
can0  581   [8]  60 00 18 02 00 00 00 00
can0  601   [8]  2F 00 1A 00 02 00 00 00
can0  581   [8]  60 00 1A 00 00 00 00 00
can0  601   [8]  23 00 18 01 81 01 00 40
can0  581   [8]  60 00 18 01 00 00 00 00
can0  601   [8]  40 02 18 01 00 00 00 00
can0  581   [8]  43 02 18 01 81 03 00 40
can0  601   [8]  23 02 18 01 81 03 00 C0
can0  581   [8]  60 02 18 01 00 00 00 00
can0  601   [8]  2F 02 1A 00 00 00 00 00
can0  581   [8]  60 02 1A 00 00 00 00 00
can0  601   [8]  23 02 1A 01 20 00 64 60
can0  581   [8]  60 02 1A 01 00 00 00 00
can0  601   [8]  40 64 60 00 00 00 00 00
can0  581   [8]  43 64 60 00 00 00 00 00
can0  601   [8]  2F 02 1A 00 01 00 00 00
can0  581   [8]  60 02 1A 00 00 00 00 00
can0  601   [8]  23 02 18 01 81 03 00 40
can0  581   [8]  60 02 18 01 00 00 00 00
can0  601   [8]  40 6C 60 00 00 00 00 00
can0  581   [8]  43 6C 60 00 00 00 00 00
can0  601   [8]  40 00 14 01 00 00 00 00
can0  581   [8]  43 00 14 01 01 02 00 40
can0  601   [8]  23 00 14 01 01 02 00 C0
can0  581   [8]  60 00 14 01 00 00 00 00
can0  601   [8]  2F 00 16 00 00 00 00 00
can0  581   [8]  60 00 16 00 00 00 00 00
can0  601   [8]  23 00 16 01 10 00 40 60
can0  581   [8]  60 00 16 01 00 00 00 00
can0  601   [8]  40 40 60 00 00 00 00 00
can0  581   [8]  4B 40 60 00 80 01 00 00
can0  601   [8]  23 00 16 02 20 00 FF 60
can0  581   [8]  60 00 16 02 00 00 00 00
can0  601   [8]  2F 00 14 02 01 00 00 00
can0  581   [8]  60 00 14 02 00 00 00 00
can0  601   [8]  2F 00 16 00 02 00 00 00
can0  581   [8]  60 00 16 00 00 00 00 00
can0  601   [8]  23 00 14 01 01 02 00 40
can0  581   [8]  60 00 14 01 00 00 00 00
can0  601   [8]  40 01 14 01 00 00 00 00
can0  581   [8]  43 01 14 01 01 03 00 40
can0  601   [8]  23 01 14 01 01 03 00 C0
can0  581   [8]  60 01 14 01 00 00 00 00
can0  601   [8]  2F 01 16 00 00 00 00 00
can0  581   [8]  60 01 16 00 00 00 00 00
can0  601   [8]  23 01 16 01 20 00 7A 60
can0  581   [8]  60 01 16 01 00 00 00 00
can0  601   [8]  2F 01 14 02 01 00 00 00
can0  581   [8]  60 01 14 02 00 00 00 00
can0  601   [8]  2F 01 16 00 01 00 00 00
can0  581   [8]  60 01 16 00 00 00 00 00
can0  601   [8]  23 01 14 01 01 03 00 40
can0  581   [8]  60 01 14 01 00 00 00 00
can0  601   [8]  40 03 14 01 00 00 00 00
can0  581   [8]  43 03 14 01 01 05 00 40
can0  601   [8]  23 03 14 01 01 05 00 C0
can0  581   [8]  60 03 14 01 00 00 00 00
can0  601   [8]  2F 03 16 00 00 00 00 00
can0  581   [8]  60 03 16 00 00 00 00 00
can0  601   [8]  23 03 16 01 08 00 60 60
can0  581   [8]  60 03 16 01 00 00 00 00
can0  601   [8]  23 03 16 02 20 00 71 60
can0  581   [8]  60 03 16 02 00 00 00 00
can0  601   [8]  2F 03 14 02 01 00 00 00
can0  581   [8]  60 03 14 02 00 00 00 00
can0  601   [8]  2F 03 16 00 02 00 00 00
can0  581   [8]  60 03 16 00 00 00 00 00
can0  601   [8]  23 03 14 01 01 05 00 40
can0  581   [8]  60 03 14 01 00 00 00 00
can0  601   [8]  2F 03 18 02 01 00 00 00
can0  581   [8]  60 03 18 02 00 00 00 00
can0  601   [8]  2F 02 14 02 01 00 00 00
can0  581   [8]  60 02 14 02 00 00 00 00
can0  601   [8]  2F 01 18 02 01 00 00 00
can0  581   [8]  60 01 18 02 00 00 00 00
can0  000   [2]  01 01
can0  601   [8]  40 02 65 00 00 00 00 00
can0  581   [8]  43 02 65 00 A5 03 00 00
can0  000   [2]  02 01
